
**** 10/31/19 23:04:55 ****** PSpice 16.5.0 (April 2011) ****** ID# 0 ********

 ** Profile: "SCHEMATIC1-9.28"  [ E:\Practica SCR-Triac\Practica-PSpiceFiles\SCHEMATIC1\9.28.sim ] 


 ****     CIRCUIT DESCRIPTION


******************************************************************************




** Creating circuit file "9.28.cir" 
** WARNING: THIS AUTOMATICALLY GENERATED FILE MAY BE OVERWRITTEN BY SUBSEQUENT SIMULATIONS

*Libraries: 
* Profile Libraries :
* Local Libraries :
* From [PSPICE NETLIST] section of C:\Cadence\SPB_16.5\tools\PSpice\PSpice.ini file:
.lib "nom.lib" 

*Analysis directives: 
.TRAN  0 25ms 0 65u 
.PROBE V(alias(*)) I(alias(*)) W(alias(*)) D(alias(*)) NOISE(alias(*)) 
.INC "..\SCHEMATIC1.net" 



**** INCLUDING SCHEMATIC1.net ****
* source PRACTICA
X_U1         0 N01395 N02183 N02217 N01638 LM741
R_R1         N01563 N01395  1k TC=0,0 
R_R2         N01395 N01638  2.2k TC=0,0 
V_V3         N02217 0 DC -15  
V_V4         N02183 0 DC 15  
V_V5         N01563 0  AC 0
+SIN 0 250m 1k 0 0 0
X_U2         N02970 N03399 N03126 N03140 N02986 LM741
V_V6         N02970 0  
+SIN 0 250m 1k 0 0 0
R_R3         N03399 N02986  2.2k TC=0,0 
R_R4         0 N03399  1k TC=0,0 
V_V7         N03140 0 DC -15  
V_V8         N03126 0 DC 15  
X_U3         0 N04828 N06012 N06039 N05080 LM741
R_R5         N04828 N05080 10k
R_R6         N04842 N04828 1k
R_R7         N04978 N04828 1.5k
R_R8         N04874 N04828 590
R_R9         N04978 N04842 1k
R_R10         N04874 N04842 1k
R_R12         0 N04874 1k
V_15         N04978 0  
+SIN 0 250m 1k 0 0 0
V_V9         N06012 0 -15
V_V10         N06039 0 15
X_U4         N07118 N07064 N07470 N07497 N07181 LM741
R_R13         N07064 N07181 40k
R_R14         N07098 N07064 2k
R_R15         N07164 N07118 4k
V_V11         N07098 0  
+SIN 0 250m 1k 0 0 0
V_V12         N07164 0  
+SIN 0 250m 1k 0 0 0
R_R16         0 N07118 120k
V_V13         N07470 0 15
V_V14         N07497 0 -15
X_U5         N08583 N08512 N09383 N09410 N08649 LM741
R_R17         N08512 N08649 1k
R_R18         N08922 N08512 1k
R_R19         N08886 N08512 1k
R_R20         N08978 N08583 1k
R_R21         0 N08583 1k
V_V15         N08922 0  
+SIN 3 250m 1k 0 0 0
V_V16         N08886 0  
+SIN 2 250m 1k 0 0 0
V_V17         N08978 0  
+SIN 2 250m 1k 0 0 0
V_V18         N09383 0 -15
V_V19         N09410 0 15
X_U6         0 N09812 N10016 N10043 N09839 LM741
R_R22         N09812 N09839 100k
R_R23         N09769 N09812 1.2k
V_V20         N09769 0  
+SIN 0 250m 1k 0 0 0
V_V21         N10016 0 -15
V_V22         N10043 0 15
X_U7         N10606 N10453 N10818 N10791 N10491 LM741
R_R24         N10453 N10491 300k
R_R25         0 N10453 1.5k
V_V23         N10606 0  
+SIN 0 250m 1k 0 0 0
V_V24         N10791 0 -15
V_V25         N10818 0 15

**** RESUMING 9.28.cir ****
.END

**** 10/31/19 23:04:55 ****** PSpice 16.5.0 (April 2011) ****** ID# 0 ********

 ** Profile: "SCHEMATIC1-9.28"  [ E:\Practica SCR-Triac\Practica-PSpiceFiles\SCHEMATIC1\9.28.sim ] 


 ****     Diode MODEL PARAMETERS


******************************************************************************




               X_U1.x_lm741.dx X_U1.x_lm741.dy X_U2.x_lm741.dx X_U2.x_lm741.dy 
          IS  800.000000E-18  800.000000E-18  800.000000E-18  800.000000E-18 
          RS    1               1.000000E-03    1               1.000000E-03 
         CJO                   10.000000E-12                   10.000000E-12 


               X_U3.x_lm741.dx X_U3.x_lm741.dy X_U4.x_lm741.dx X_U4.x_lm741.dy 
          IS  800.000000E-18  800.000000E-18  800.000000E-18  800.000000E-18 
          RS    1               1.000000E-03    1               1.000000E-03 
         CJO                   10.000000E-12                   10.000000E-12 


               X_U5.x_lm741.dx X_U5.x_lm741.dy X_U6.x_lm741.dx X_U6.x_lm741.dy 
          IS  800.000000E-18  800.000000E-18  800.000000E-18  800.000000E-18 
          RS    1               1.000000E-03    1               1.000000E-03 
         CJO                   10.000000E-12                   10.000000E-12 


               X_U7.x_lm741.dx X_U7.x_lm741.dy 
          IS  800.000000E-18  800.000000E-18 
          RS    1               1.000000E-03 
         CJO                   10.000000E-12 


**** 10/31/19 23:04:55 ****** PSpice 16.5.0 (April 2011) ****** ID# 0 ********

 ** Profile: "SCHEMATIC1-9.28"  [ E:\Practica SCR-Triac\Practica-PSpiceFiles\SCHEMATIC1\9.28.sim ] 


 ****     BJT MODEL PARAMETERS


******************************************************************************




               X_U1.x_lm741.qx X_U2.x_lm741.qx X_U3.x_lm741.qx X_U4.x_lm741.qx 
               NPN             NPN             NPN             NPN             
       LEVEL    1               1               1               1            
          IS  800.000000E-18  800.000000E-18  800.000000E-18  800.000000E-18 
          BF   93.75           93.75           93.75           93.75         
          NF    1               1               1               1            
          BR    1               1               1               1            
          NR    1               1               1               1            
         ISS    0               0               0               0            
          RE    0               0               0               0            
          RC    0               0               0               0            
         CJE    0               0               0               0            
         VJE     .75             .75             .75             .75         
         CJC    0               0               0               0            
         VJC     .75             .75             .75             .75         
         MJC     .33             .33             .33             .33         
        XCJC    1               1               1               1            
         CJS    0               0               0               0            
         VJS     .75             .75             .75             .75         
          KF    0               0               0               0            
          AF    1               1               1               1            
          CN    2.42            2.42            2.42            2.42         
           D     .87             .87             .87             .87         


               X_U5.x_lm741.qx X_U6.x_lm741.qx X_U7.x_lm741.qx 
               NPN             NPN             NPN             
       LEVEL    1               1               1            
          IS  800.000000E-18  800.000000E-18  800.000000E-18 
          BF   93.75           93.75           93.75         
          NF    1               1               1            
          BR    1               1               1            
          NR    1               1               1            
         ISS    0               0               0            
          RE    0               0               0            
          RC    0               0               0            
         CJE    0               0               0            
         VJE     .75             .75             .75         
         CJC    0               0               0            
         VJC     .75             .75             .75         
         MJC     .33             .33             .33         
        XCJC    1               1               1            
         CJS    0               0               0            
         VJS     .75             .75             .75         
          KF    0               0               0            
          AF    1               1               1            
          CN    2.42            2.42            2.42         
           D     .87             .87             .87         


**** 10/31/19 23:04:55 ****** PSpice 16.5.0 (April 2011) ****** ID# 0 ********

 ** Profile: "SCHEMATIC1-9.28"  [ E:\Practica SCR-Triac\Practica-PSpiceFiles\SCHEMATIC1\9.28.sim ] 


 ****     INITIAL TRANSIENT SOLUTION       TEMPERATURE =   27.000 DEG C


******************************************************************************



 NODE   VOLTAGE     NODE   VOLTAGE     NODE   VOLTAGE     NODE   VOLTAGE


(N01395) 19.25E-06 (N01563)    0.0000 (N01638) 237.1E-06 (N02183)   15.0000     

(N02217)  -15.0000 (N02970)    0.0000 (N02986) 237.1E-06 (N03126)   15.0000     

(N03140)  -15.0000 (N03399) 19.25E-06 (N04828)   -1.1413 (N04842)    -.6100     

(N04874)    -.6886 (N04978)    0.0000 (N05080)-20.43E-06 (N06012)  -15.0000     

(N06039)   15.0000 (N07064)-289.3E-06 (N07098)    0.0000 (N07118)-308.6E-06     

(N07164)    0.0000 (N07181)    -.0029 (N07470)   15.0000 (N07497)  -15.0000     

(N08512)     .6505 (N08583)    -.2116 (N08649) 20.70E-06 (N08886)    2.0000     

(N08922)    3.0000 (N08978)    2.0000 (N09383)  -15.0000 (N09410)   15.0000     

(N09769)    0.0000 (N09812)   -2.0739 (N09839)-20.39E-06 (N10016)  -15.0000     

(N10043)   15.0000 (N10453) 19.11E-06 (N10491)     .0278 (N10606)    0.0000     

(N10791)  -15.0000 (N10818)   15.0000 (X_U1.x_lm741.6)-24.03E-09                

(X_U1.x_lm741.7) 242.0E-06            (X_U1.x_lm741.8) 242.0E-06                

(X_U1.x_lm741.9)    0.0000            (X_U2.x_lm741.6)-24.10E-09                

(X_U2.x_lm741.7) 242.0E-06            (X_U2.x_lm741.8) 242.0E-06                

(X_U2.x_lm741.9)    0.0000            (X_U3.x_lm741.6)   21.3570                

(X_U3.x_lm741.7)   -2.0341            (X_U3.x_lm741.8)   -2.0341                

(X_U3.x_lm741.9)    0.0000            (X_U4.x_lm741.6) 272.6E-09                

(X_U4.x_lm741.7)    -.0029            (X_U4.x_lm741.8)    -.0029                

(X_U4.x_lm741.9)    0.0000            (X_U5.x_lm741.6)  -16.1400                

(X_U5.x_lm741.7)    2.0337            (X_U5.x_lm741.8)    2.0337                

(X_U5.x_lm741.9)    0.0000            (X_U6.x_lm741.6)   38.7920                

(X_U6.x_lm741.7)   -2.0349            (X_U6.x_lm741.8)   -2.0349                

(X_U6.x_lm741.9)    0.0000            (X_U7.x_lm741.6)-2.619E-06                

(X_U7.x_lm741.7)     .0278            (X_U7.x_lm741.8)     .0278                

(X_U7.x_lm741.9)    0.0000            (X_U1.x_lm741.10)    -.6077               

(X_U1.x_lm741.11)   14.9600           (X_U1.x_lm741.12)   14.9600               

(X_U1.x_lm741.13)    -.5938           (X_U1.x_lm741.14)    -.5938               

(X_U1.x_lm741.53)   14.0000           (X_U1.x_lm741.54)  -14.0000               

(X_U1.x_lm741.90) 99.01E-06           (X_U1.x_lm741.91)   40.0000               

(X_U1.x_lm741.92)  -40.0000           (X_U1.x_lm741.99)    0.0000               

(X_U2.x_lm741.10)    -.6077           (X_U2.x_lm741.11)   14.9600               

(X_U2.x_lm741.12)   14.9600           (X_U2.x_lm741.13)    -.5938               

(X_U2.x_lm741.14)    -.5938           (X_U2.x_lm741.53)   14.0000               

(X_U2.x_lm741.54)  -14.0000           (X_U2.x_lm741.90) 99.01E-06               

(X_U2.x_lm741.91)   40.0000           (X_U2.x_lm741.92)  -40.0000               

(X_U2.x_lm741.99)    0.0000           (X_U3.x_lm741.10)   -1.3280               

(X_U3.x_lm741.11)   -1.8816           (X_U3.x_lm741.12)    -.7485               

(X_U3.x_lm741.13)   -1.8774           (X_U3.x_lm741.14)    -.7509               

(X_U3.x_lm741.53)  -16.0000           (X_U3.x_lm741.54)   16.0000               

(X_U3.x_lm741.90)  -40.6820           (X_U3.x_lm741.91)   40.0000               

(X_U3.x_lm741.92)  -40.0000           (X_U3.x_lm741.99)    0.0000               

(X_U4.x_lm741.10)    -.6080           (X_U4.x_lm741.11)   14.9600               

(X_U4.x_lm741.12)   14.9600           (X_U4.x_lm741.13)    -.5941               

(X_U4.x_lm741.14)    -.5941           (X_U4.x_lm741.53)   14.0000               

(X_U4.x_lm741.54)  -14.0000           (X_U4.x_lm741.90)-64.90E-06               

(X_U4.x_lm741.91)   40.0000           (X_U4.x_lm741.92)  -40.0000               

(X_U4.x_lm741.99)    0.0000           (X_U5.x_lm741.10)    -.5399               

(X_U5.x_lm741.11)    -.0984           (X_U5.x_lm741.12)    -.9547               

(X_U5.x_lm741.13)    -.1001           (X_U5.x_lm741.14)    -.9518               

(X_U5.x_lm741.53)  -16.0000           (X_U5.x_lm741.54)   16.0000               

(X_U5.x_lm741.90)   40.6740           (X_U5.x_lm741.91)   40.0000               

(X_U5.x_lm741.92)  -40.0000           (X_U5.x_lm741.99)    0.0000               

(X_U6.x_lm741.10)   -1.7903           (X_U6.x_lm741.11)   -2.8086               

(X_U6.x_lm741.12)    -.7506           (X_U6.x_lm741.13)   -2.7985               

(X_U6.x_lm741.14)    -.7545           (X_U6.x_lm741.53)  -16.0000               

(X_U6.x_lm741.54)   16.0000           (X_U6.x_lm741.90)  -40.6980               

(X_U6.x_lm741.91)   40.0000           (X_U6.x_lm741.92)  -40.0000               

(X_U6.x_lm741.99)    0.0000           (X_U7.x_lm741.10)    -.6077               

(X_U7.x_lm741.11)   14.9600           (X_U7.x_lm741.12)   14.9600               

(X_U7.x_lm741.13)    -.5938           (X_U7.x_lm741.14)    -.5938               

(X_U7.x_lm741.53)   14.0000           (X_U7.x_lm741.54)  -14.0000               

(X_U7.x_lm741.90) 92.50E-06           (X_U7.x_lm741.91)   40.0000               

(X_U7.x_lm741.92)  -40.0000           (X_U7.x_lm741.99)    0.0000           




    VOLTAGE SOURCE CURRENTS
    NAME         CURRENT

    V_V3         1.667E-03
    V_V4        -1.667E-03
    V_V5         1.925E-08
    V_V6        -7.972E-08
    V_V7         1.667E-03
    V_V8        -1.667E-03
    V_15        -1.371E-03
    V_V9         1.488E+04
    V_V10       -1.488E+04
    V_V11       -1.447E-07
    V_V12       -7.715E-08
    V_V13       -1.667E-03
    V_V14        1.667E-03
    V_V15       -2.349E-03
    V_V16       -1.349E-03
    V_V17       -2.212E-03
    V_V18        1.488E+04
    V_V19       -1.488E+04
    V_V20       -1.728E-03
    V_V21        1.488E+04
    V_V22       -1.488E+04
    V_V23       -7.972E-08
    V_V24        1.667E-03
    V_V25       -1.667E-03
    X_U1.x_lm741.vb  -2.403E-13
    X_U1.x_lm741.vc   1.400E-11
    X_U1.x_lm741.ve   1.455E-11
    X_U1.x_lm741.vlim   9.901E-08
    X_U1.x_lm741.vlp  -4.000E-11
    X_U1.x_lm741.vln  -4.000E-11
    X_U2.x_lm741.vb  -2.410E-13
    X_U2.x_lm741.vc   1.400E-11
    X_U2.x_lm741.ve   1.432E-11
    X_U2.x_lm741.vlim   9.901E-08
    X_U2.x_lm741.vlp  -4.000E-11
    X_U2.x_lm741.vln  -4.000E-11
    X_U3.x_lm741.vb   2.136E-04
    X_U3.x_lm741.vc  -1.485E+04
    X_U3.x_lm741.ve  -1.485E+04
    X_U3.x_lm741.vlim  -4.068E-02
    X_U3.x_lm741.vlp  -8.068E-11
    X_U3.x_lm741.vln   2.225E-04
    X_U4.x_lm741.vb   2.726E-12
    X_U4.x_lm741.vc   1.400E-11
    X_U4.x_lm741.ve   1.432E-11
    X_U4.x_lm741.vlim  -6.490E-08
    X_U4.x_lm741.vlp  -4.000E-11
    X_U4.x_lm741.vln  -4.000E-11
    X_U5.x_lm741.vb  -1.614E-04
    X_U5.x_lm741.vc  -1.485E+04
    X_U5.x_lm741.ve  -1.485E+04
    X_U5.x_lm741.vlim   4.067E-02
    X_U5.x_lm741.vlp   1.671E-04
    X_U5.x_lm741.vln  -8.068E-11
    X_U6.x_lm741.vb   3.879E-04
    X_U6.x_lm741.vc  -1.485E+04
    X_U6.x_lm741.ve  -1.485E+04
    X_U6.x_lm741.vlim  -4.070E-02
    X_U6.x_lm741.vlp  -8.070E-11
    X_U6.x_lm741.vln   4.075E-04
    X_U7.x_lm741.vb  -2.619E-11
    X_U7.x_lm741.vc   1.397E-11
    X_U7.x_lm741.ve   1.458E-11
    X_U7.x_lm741.vlim   9.250E-08
    X_U7.x_lm741.vlp  -4.000E-11
    X_U7.x_lm741.vln  -4.000E-11

    TOTAL POWER DISSIPATION   1.43E+06  WATTS



          JOB CONCLUDED

**** 10/31/19 23:04:55 ****** PSpice 16.5.0 (April 2011) ****** ID# 0 ********

 ** Profile: "SCHEMATIC1-9.28"  [ E:\Practica SCR-Triac\Practica-PSpiceFiles\SCHEMATIC1\9.28.sim ] 


 ****     JOB STATISTICS SUMMARY


******************************************************************************



  Total job time (using Solver 1)   =         .89
